Circuit: * D:\Purdue\Senior\ECE 49022\LTSPICE\headphone_comparator.asc

ERROR: Node U1:I0:I21:1:102 is floating and connected to current source G:U1:I0:I21:1:RA
ERROR: Node U1:I0:I19:1:102 is floating and connected to current source G:U1:I0:I19:1:RA
ERROR: Node U1:I0:I19:1:302 is floating and connected to current source G:U1:I0:I19:1:RC

WARNING: Less than two connections to node NC_01.  This node is used by VDETECT.
Direct Newton iteration for .op point succeeded.
Semiconductor Device Operating Points:
                        --- MOSFET Transistors ---
Name:      m:u1:i0:i72:0
Model:         nmos1
Id:           3.30e-05
Vgs:          3.30e+00
Vds:          3.63e-03
Vbs:          0.00e+00
Vth:          0.00e+00
Vdsat:        3.94e+00
Gm:           9.99e-06
Gds:          9.07e-03
Gmb:         -3.22e-06
Cbd:          0.00e+00
Cbs:          0.00e+00
Cgsov:        0.00e+00
Cgdov:        0.00e+00
Cgbov:        0.00e+00
Cgs:          1.73e-12
Cgd:          1.73e-12
Cgb:          0.00e+00



Date: Thu Feb 13 00:43:33 2020
Total elapsed time: 0.034 seconds.

tnom = 27
temp = 27
method = trap
totiter = 6
traniter = 0
tranpoints = 0
accept = 0
rejected = 0
matrix size = 98
fillins = 31
solver = Normal

